<Qucs Dataset 0.0.15>
<indep x 10>
  +5.00000000000e+00
  +1.00000000000e+01
  +1.50000000000e+01
  +2.00000000000e+01
  +2.50000000000e+01
  +3.00000000000e+01
  +3.50000000000e+01
  +4.00000000000e+01
  +4.50000000000e+01
  +5.00000000000e+01
</indep>
<dep V1.I x>
  -6.07142857143e-01
  -4.47368421053e-01
  -3.54166666667e-01
  -2.93103448276e-01
  -2.50000000000e-01
  -2.17948717949e-01
  -1.93181818182e-01
  -1.73469387755e-01
  -1.57407407407e-01
  -1.44067796610e-01
</dep>
<dep izeja.V x>
  +3.03571428571e+00
  +4.47368421053e+00
  +5.31250000000e+00
  +5.86206896552e+00
  +6.25000000000e+00
  +6.53846153846e+00
  +6.76136363636e+00
  +6.93877551020e+00
  +7.08333333333e+00
  +7.20338983051e+00
</dep>
<dep _net0.V x>
  +8.50000000000e+00
  +8.50000000000e+00
  +8.50000000000e+00
  +8.50000000000e+00
  +8.50000000000e+00
  +8.50000000000e+00
  +8.50000000000e+00
  +8.50000000000e+00
  +8.50000000000e+00
  +8.50000000000e+00
</dep>
